Questionable use of curly braces in "r1 n005 0 216 pwr={r}"
    Error: undefined symbol in: "[r]"
Circuit: * H:\Documents\TPELA\Miroir_courant_effet early.asc

Error on line 7 : r1 n005 0 216 pwr=(r)
	 Unknown parameter "r"
Direct Newton iteration for .op point succeeded.
Semiconductor Device Operating Points:
                        --- Bipolar Transistors ---
Name:       q4          q3
Model:    2n2222      2n2222
Ib:       4.99e-06    9.51e-07
Ic:       9.94e-04    1.98e-04
Vbe:      6.55e-01    6.12e-01
Vbc:      0.00e+00   -4.34e+00
Vce:      6.55e-01    4.96e+00
BetaDC:   1.99e+02    2.09e+02
Gm:       3.83e-02    7.66e-03
Rpi:      5.19e+03    2.72e+04
Rx:       1.00e+01    1.00e+01
Ro:       1.01e+05    5.26e+05
Cbe:      5.45e-11    4.11e-11
Cbc:      8.00e-12    4.25e-12
Cjs:      0.00e+00    0.00e+00
BetaAC:   1.99e+02    2.08e+02
Cbx:      0.00e+00    0.00e+00
Ft:       9.75e+07    2.69e+07



Date: Thu Mar 31 10:36:49 2022
Total elapsed time: 0.036 seconds.

tnom = 27
temp = 27
method = trap
totiter = 9
traniter = 0
tranpoints = 0
accept = 0
rejected = 0
matrix size = 15
fillins = 2
solver = Normal
Matrix Compiler1:      52 opcodes
Matrix Compiler2: 1.14 KB object code size
